Command: /tools/proj/verification_platform/ut_noc/7_run/2_work/output/simv +UVM_TESTNAME=directed_test +UVM_VERBOSITY=UVM_MEDIUM +fsdb+dump_log=off -logdir /tools/proj/verification_platform/ut_noc/7_run/2_work/directed_test -k /tools/proj/verification_platform/ut_noc/7_run/2_work/directed_test +fsdbfile=/tools/proj/verification_platform/ut_noc/7_run/2_work/directed_test/directed_test_12345678.fsdb +vcs+flush+all -cm line+cond+fsm+tgl+branch+assert -cm_name directed_test_12345678_cov -cm_dir /tools/proj/verification_platform/ut_noc/7_run/2_work/cov/simv.vdb -cm_log /tools/proj/verification_platform/ut_noc/7_run/2_work/cov/directed_test_12345678_cm.log -l /tools/proj/verification_platform/ut_noc/7_run/2_work/directed_test/directed_test_12345678.log
Chronologic VCS simulator copyright 1991-2020
Contains Synopsys proprietary information.
Compiler version R-2020.12-SP1_Full64; Runtime version R-2020.12-SP1_Full64;  Aug  8 11:10 2023
----------------------------------------------------------------
UVM-1.1d.Synopsys
(C) 2007-2013 Mentor Graphics Corporation
(C) 2007-2013 Cadence Design Systems, Inc.
(C) 2006-2013 Synopsys, Inc.
(C) 2011-2013 Cypress Semiconductor Corp.
----------------------------------------------------------------

  ***********       IMPORTANT RELEASE NOTES         ************

  You are using a version of the UVM library that has been compiled
  with `UVM_NO_DEPRECATED undefined.
  See http://www.eda.org/svdb/view.php?id=3313 for more details.

  You are using a version of the UVM library that has been compiled
  with `UVM_OBJECT_MUST_HAVE_CONSTRUCTOR undefined.
  See http://www.eda.org/svdb/view.php?id=3770 for more details.

      (Specify +UVM_NO_RELNOTES to turn off this notice)

UVM_INFO @ 0: reporter [RNTST] Running test directed_test...
*Verdi* Loading libsscore_vcs202012.so
*Verdi* : Disable novas_dump.log.
FSDB Dumper for VCS, Release Verdi_R-2020.12-SP1, Linux x86_64/64bit, 03/02/2021
(C) 1996 - 2021 by Synopsys, Inc.
*Verdi* FSDB WARNING: The FSDB file already exists. Overwriting the FSDB file may crash the programs that are using this file.
*Verdi* : Create FSDB file '/tools/proj/verification_platform/ut_noc/7_run/2_work/directed_test/directed_test_12345678.fsdb'
*Verdi* : Begin traversing the scopes, layer (0).
*Verdi* : End of traversing.
*Verdi* : Begin traversing the MDAs, layer (0).
*Verdi* : Enable +mda and +packedmda dumping.
*Verdi* : End of traversing the MDAs.
UVM_INFO /tools/proj/verification_platform/ut_noc/7_run/2_work/../../6_top/2_tc/./svt_axi_test/./ts.directed_test.sv(38) @ 0: uvm_test_top [build_phase] Entered...
UVM_INFO /tools/proj/verification_platform/2_common/axi_vip_snps/design_dir/examples/sverilog/amba_svt/tb_axi_svt_uvm_basic_sys/env/axi_base_test.sv(70) @ 0: uvm_test_top [build_phase] Entered...
UVM_INFO /tools/proj/verification_platform/2_common/axi_vip_snps/design_dir/examples/sverilog/amba_svt/tb_axi_svt_uvm_basic_sys/env/axi_base_test.sv(77) @ 0: uvm_test_top [build_phase] Value of load_through_config_creator ...
UVM_INFO /tools/proj/verification_platform/2_common/axi_vip_snps/design_dir/examples/sverilog/amba_svt/tb_axi_svt_uvm_basic_sys/env/axi_base_test.sv(78) @ 0: uvm_test_top [build_phase] load_through_config_creator = 0
UVM_INFO /tools/proj/verification_platform/2_common/axi_vip_snps/design_dir/examples/sverilog/amba_svt/tb_axi_svt_uvm_basic_sys/env/axi_base_test.sv(99) @ 0: uvm_test_top [build_phase] Loaded cust_svt_axi_system_configuration 
UVM_INFO /tools/synopsys/dw/vip/svt/common/R-2020.12/sverilog/src/vcs/svt_sequence_item_base.svp(2311) @ 0: reporter [new] VCS-SV simulation.
TimeScale of svt_uvm_pkg is 1 ns / 1 ps 
UVM_INFO /tools/synopsys/dw/vip/svt/common/R-2020.12/sverilog/src/vcs/svt_sequence_item_base.svp(2311) @ 0: reporter [new] VIP Vendor: Synopsys, VIP Suite: SVT, VIP Version: R-2020.12
UVM_INFO /tools/synopsys/dw/vip/svt/common/R-2020.12/sverilog/src/vcs/svt_sequence_item_base.svp(2311) @ 0: reporter [new] DESIGNWARE_HOME@compile: /tools/synopsys/dw/.
TimeScale of svt_uvm_pkg is 1 ns / 1 ps 
UVM_INFO /tools/synopsys/dw/vip/svt/common/R-2020.12/sverilog/src/vcs/svt_sequence_item_base.svp(5735) @ 0: reporter [new] VIP Vendor: Synopsys, VIP Suite: AMBA-BASE, VIP Version: R-2020.12
UVM_INFO /tools/proj/verification_platform/2_common/axi_vip_snps/design_dir/examples/sverilog/amba_svt/tb_axi_svt_uvm_basic_sys/env/axi_base_test.sv(141) @ 0: uvm_test_top [build_phase] Exiting...
UVM_INFO /tools/proj/verification_platform/ut_noc/7_run/2_work/../../6_top/2_tc/./svt_axi_test/./ts.directed_test.sv(54) @ 0: uvm_test_top [build_phase] Exiting...
UVM_INFO /tools/proj/verification_platform/2_common/axi_vip_snps/design_dir/examples/sverilog/amba_svt/tb_axi_svt_uvm_basic_sys/env/axi_basic_env.sv(51) @ 0: uvm_test_top.env [build_phase] Entered...
UVM_INFO /tools/proj/verification_platform/2_common/axi_vip_snps/design_dir/examples/sverilog/amba_svt/tb_axi_svt_uvm_basic_sys/env/axi_basic_env.sv(82) @ 0: uvm_test_top.env [build_phase] Exiting...
UVM_INFO /tools/proj/verification_platform/2_common/axi_vip_snps/design_dir/examples/sverilog/amba_svt/tb_axi_svt_uvm_basic_sys/env/axi_virtual_sequencer.sv(28) @ 0: uvm_test_top.env.sequencer [build_phase] Entered...
UVM_INFO /tools/proj/verification_platform/2_common/axi_vip_snps/design_dir/examples/sverilog/amba_svt/tb_axi_svt_uvm_basic_sys/env/axi_virtual_sequencer.sv(36) @ 0: uvm_test_top.env.sequencer [build_phase] Exiting...
UVM_INFO /tools/synopsys/dw/vip/svt/amba_svt/R-2020.12/axi_system_env_svt/sverilog/src/vcs/svt_axi_system_env.svp(455) @ 0: uvm_test_top.env.axi_system_env [connect_ph] ***************System Configuration**************
---------------------------------------------------------------------------------------------------------------------------------------
Name                                                                                                               Type                                                          Size  Value                                                              
---------------------------------------------------------------------------------------------------------------------------------------
cfg                                                                                                                cust_svt_axi_system_configuration                             -     @1075                                                              
  master_cfg                                                                                                       da(object)                                                    1     -                                                                  
    [0]                                                                                                            svt_axi_port_configuration                                    -     @1403                                                              
      sys_cfg                                                                                                      cust_svt_axi_system_configuration                             -     @759                                                               
      slave_addr_ranges                                                                                            da(object)                                                    0     -                                                                  
      dest_addr_mappers                                                                                            da(object)                                                    0     -                                                                  
      source_addr_mappers                                                                                          da(object)                                                    0     -                                                                  
      source_requester_name                                                                                        string                                                        0     ""                                                                 
      path_cov_slave_names                                                                                         array(svt_amba_addr_mapper::path_cov_dest_names_enum)         0     -                                                                  
      inst                                                                                                         string                                                        9     master[0]                                                          
      no_dut                                                                                                       integral                                                      1     'b0                                                                
      no_dut_xact_limit                                                                                            integral                                                      32    'd100                                                              
      enable_signal_callbacks                                                                                      integral                                                      1     'b0                                                                
      port_id                                                                                                      integral                                                      32    'd0                                                                
      amba_system_port_id                                                                                          integral                                                      32    -1                                                                 
      update_memory_in_request_order                                                                               integral                                                      32    'd0                                                                
      axi_wr_addr_buffer                                                                                           integral                                                      32    'd16                                                               
      axi_wr_resp_buffer                                                                                           integral                                                      32    'd16                                                               
      axi_wr_data_buffer                                                                                           integral                                                      32    'd4096                                                             
      axi_rd_addr_buffer                                                                                           integral                                                      32    'd16                                                               
      axi_rd_resp_buffer                                                                                           integral                                                      32    'd4096                                                             
      initialize_output_signals_at_start                                                                           integral                                                      1     'b0                                                                
      id_based_xact_correlation_enable                                                                             integral                                                      1     'b1                                                                
      byte_boundary_for_master_xact_split                                                                          integral                                                      32    'd32                                                               
      port_interleaving_size                                                                                       integral                                                      32    'd64                                                               
      port_interleaving_group_id                                                                                   integral                                                      32    -1                                                                 
      port_interleaving_index                                                                                      integral                                                      32    'd0                                                                
      clock_enable                                                                                                 integral                                                      1     'b1                                                                
      pa_format_type                                                                                               svt_xml_writer::format_type_enum                              32    FSDB                                                               
      mem_type                                                                                                     mem_type_enum                                                 32    SV_BASED_SVT_MEM                                                   
      axi_interface_type                                                                                           axi_interface_type_enum                                       32    AXI3                                                               
      perf_inactivity_algorithm_type                                                                               perf_inactivity_algorithm_type_enum                           32    EXCLUDE_ALL                                                        
      single_outstanding_per_id_kind                                                                               single_outstanding_per_id_kind_enum                           32    WAIT_FOR_COMPLETION_OF_SAME_ID                                     
      axi_interface_category                                                                                       axi_interface_category_enum                                   32    AXI_READ_WRITE                                                     
      axi_port_kind                                                                                                axi_port_kind_enum                                            32    AXI_MASTER                                                         
      force_xact_to_cache_line_size_interface_type                                                                 force_xact_to_cache_line_size_interface_type_enum             32    ALL_INTERFACE_TYPES                                                
      ace_version                                                                                                  ace_version_enum                                              32    ACE_VERSION_1_0                                                    
      silent_mode                                                                                                  integral                                                      1     'b0                                                                
      is_4state                                                                                                    integral                                                      1     'b0                                                                
      is_downstream_coherent                                                                                       integral                                                      1     'b0                                                                
      is_active                                                                                                    integral                                                      1     'b1                                                                
      is_ic_port                                                                                                   integral                                                      1     'b0                                                                
      partial_write_to_slave_read_and_write_association_enable                                                     integral                                                      1     'b0                                                                
      cache_stashing_enable                                                                                        integral                                                      1     'b0                                                                
      trace_tag_enable                                                                                             integral                                                      1     'b0                                                                
      loopback_trace_tag_enable                                                                                    integral                                                      1     'b0                                                                
      deallocating_xacts_enable                                                                                    integral                                                      1     'b0                                                                
      addr_translation_enable                                                                                      integral                                                      1     'b0                                                                
      max_num_outstanding_xacts_check_enable                                                                       integral                                                      1     'b0                                                                
      port_interleaving_enable                                                                                     integral                                                      1     'b0                                                                
      dvm_sent_from_interleaved_port                                                                               integral                                                      1     'b0                                                                
      device_xact_sent_from_interleaved_port                                                                       integral                                                      1     'b0                                                                
      port_interleaving_for_device_xact_enable                                                                     integral                                                      1     'b0                                                                
      poison_enable                                                                                                integral                                                      1     'b0                                                                
      connect_to_axi_system_monitor                                                                                integral                                                      1     'b1                                                                
      use_external_port_monitor                                                                                    integral                                                      1     'b0                                                                
      wid_for_non_axi3_enable                                                                                      integral                                                      1     'b0                                                                
      per_clock_cycle_signal_checks_enable                                                                         integral                                                      1     'b1                                                                
      check_recommended_xact_length_for_locked_sequence                                                            integral                                                      1     'b0                                                                
      allow_overlapped_read_and_write_channel_coherent_transactions                                                integral                                                      1     'b0                                                                
      allow_was_unique_zero_in_unique_state                                                                        integral                                                      1     'b1                                                                
      allow_multibeat_atomic_transactions_to_be_less_than_data_width                                               integral                                                      1     'b0                                                                
      reset_type                                                                                                   reset_type_enum                                               32    0                                                                  
      tagged_address_space_attributes_enable                                                                       integral                                                      2     'h0                                                                
      use_tlm_generic_payload                                                                                      integral                                                      1     'b0                                                                
      use_pv_socket                                                                                                integral                                                      1     'b0                                                                
      uvm_reg_enable                                                                                               integral                                                      1     'b0                                                                
      data_transfer_for_makeinvalid_snoop_enable                                                                   integral                                                      1     'b0                                                                
      xact_inactivity_timeout                                                                                      integral                                                      32    'd0                                                                
      log_base_2_max_cache_line_size                                                                               integral                                                      32    'd0                                                                
      is_slave_addr_range_set                                                                                      integral                                                      1     'b0                                                                
      log_base_2_data_width                                                                                        integral                                                      32    'd0                                                                
      log_base_2_snoop_data_width                                                                                  integral                                                      32    'd0                                                                
      log_base_2_cache_line_size                                                                                   integral                                                      32    'd0                                                                
      log_base_2_atomicity_size                                                                                    integral                                                      32    'd0                                                                
      addr_width                                                                                                   integral                                                      32    'd64                                                               
      addr_user_width                                                                                              integral                                                      32    'd4                                                                
      data_width                                                                                                   integral                                                      32    'd64                                                               
      data_user_width                                                                                              integral                                                      32    'd8                                                                
      resp_user_width                                                                                              integral                                                      32    'd4                                                                
      cache_line_size                                                                                              integral                                                      32    'd2048                                                             
      start_addr_snoop_aligned_size                                                                                integral                                                      32    'd0                                                                
      atomicity_size                                                                                               integral                                                      32    -1                                                                 
      num_cache_lines                                                                                              integral                                                      32    'd1024                                                             
      snoop_data_width                                                                                             integral                                                      32    'd1024                                                             
      awid_enable                                                                                                  integral                                                      1     'b1                                                                
      wysiwyg_enable                                                                                               integral                                                      1     'b0                                                                
      get_byte_count_from_wstrb_enable                                                                             integral                                                      1     'b0                                                                
      ignore_wstrb_check_for_wysiwyg_format                                                                        integral                                                      1     'b0                                                                
      awregion_enable                                                                                              integral                                                      1     'b0                                                                
      awlen_enable                                                                                                 integral                                                      1     'b1                                                                
      awsize_enable                                                                                                integral                                                      1     'b1                                                                
      awburst_enable                                                                                               integral                                                      1     'b1                                                                
      awlock_enable                                                                                                integral                                                      1     'b1                                                                
      awcache_enable                                                                                               integral                                                      1     'b1                                                                
      awprot_enable                                                                                                integral                                                      1     'b1                                                                
      awqos_enable                                                                                                 integral                                                      1     'b0                                                                
      wstrb_enable                                                                                                 integral                                                      1     'b1                                                                
      wlast_enable                                                                                                 integral                                                      1     'b1                                                                
      bid_enable                                                                                                   integral                                                      1     'b1                                                                
      bresp_enable                                                                                                 integral                                                      1     'b1                                                                
      arid_enable                                                                                                  integral                                                      1     'b1                                                                
      arregion_enable                                                                                              integral                                                      1     'b0                                                                
      arlen_enable                                                                                                 integral                                                      1     'b1                                                                
      arsize_enable                                                                                                integral                                                      1     'b1                                                                
      arburst_enable                                                                                               integral                                                      1     'b1                                                                
      arlock_enable                                                                                                integral                                                      1     'b1                                                                
      arcache_enable                                                                                               integral                                                      1     'b1                                                                
      arprot_enable                                                                                                integral                                                      1     'b1                                                                
      arqos_enable                                                                                                 integral                                                      1     'b0                                                                
      rid_enable                                                                                                   integral                                                      1     'b1                                                                
      rresp_enable                                                                                                 integral                                                      1     'b1                                                                
      rlast_enable                                                                                                 integral                                                      1     'b1                                                                
      awuser_enable                                                                                                integral                                                      1     'b0                                                                
      wuser_enable                                                                                                 integral                                                      1     'b0                                                                
      buser_enable                                                                                                 integral                                                      1     'b0                                                                
      aruser_enable                                                                                                integral                                                      1     'b0                                                                
      ruser_enable                                                                                                 integral                                                      1     'b0                                                                
      zero_delay_enable                                                                                            integral                                                      1     'b0                                                                
      awakeup_enable                                                                                               integral                                                      1     'b0                                                                
      prev_xact_data_handshake_ref_event_enable                                                                    integral                                                      1     'b0                                                                
      awakeup_toggle_min_delay_during_idle                                                                         integral                                                      32    'd1                                                                
      awakeup_toggle_max_delay_during_idle                                                                         integral                                                      32    'd5                                                                
      acwakeup_enable                                                                                              integral                                                      1     'b0                                                                
      acwakeup_toggle_min_delay_during_idle                                                                        integral                                                      32    'd1                                                                
      acwakeup_toggle_max_delay_during_idle                                                                        integral                                                      32    'd5                                                                
      wdata_optimistic_flow_control_enable                                                                         integral                                                      1     'b0                                                                
      memory_update_for_read_xact_enable                                                                           integral                                                      1     'b0                                                                
      use_separate_rd_wr_chan_id_width                                                                             integral                                                      1     'b0                                                                
      id_width                                                                                                     integral                                                      32    'd8                                                                
      read_chan_id_width                                                                                           integral                                                      32    'd8                                                                
      write_chan_id_width                                                                                          integral                                                      32    'd8                                                                
      barrier_id_overlap                                                                                           integral                                                      1     'b1                                                                
      barrier_id_min                                                                                               integral                                                      32    'd0                                                                
      barrier_id_max                                                                                               integral                                                      32    'd255                                                              
      dvm_id_overlap                                                                                               integral                                                      1     'b1                                                                
      dvm_id_min                                                                                                   integral                                                      32    'd15                                                               
      dvm_id_max                                                                                                   integral                                                      32    'd255                                                              
      source_master_id_xmit_to_slaves_type                                                                         source_master_id_xmit_to_slaves_type_enum                     32    STATIC_SOURCE_MASTER_ID_XMIT_TO_SLAVES                             
      check_type                                                                                                   check_type_enum                                               32    FALSE                                                              
      master_slave_xact_association_cache_prot_check                                                               master_slave_xact_association_cache_prot_check_enum           32    SVT_AXI_MASTER_SLAVE_XACT_ASSOCIATION_NONMODIFIABLE_CHECK          
      source_master_id_xmit_to_slaves                                                                              integral                                                      8     'h0                                                                
      is_source_master_id_and_dest_slave_id_same                                                                   integral                                                      1     'b0                                                                
      dvm_enable                                                                                                   integral                                                      1     'b0                                                                
      auto_gen_dvm_complete_enable                                                                                 integral                                                      1     'b0                                                                
      launch_auto_gen_dvm_complete_on_outstanding_xact_completion                                                  integral                                                      1     'b0                                                                
      min_auto_gen_dvm_complete_delay                                                                              integral                                                      32    'd0                                                                
      max_auto_gen_dvm_complete_delay                                                                              integral                                                      32    'd250                                                              
      speculative_read_enable                                                                                      integral                                                      1     'b0                                                                
      exclusive_monitor_enable                                                                                     integral                                                      1     'b1                                                                
      snoop_filter_enable                                                                                          integral                                                      1     'b0                                                                
      forward_cmos_to_slaves_check_enable                                                                          integral                                                      1     'b0                                                                
      cache_line_state_change_type                                                                                 cache_line_state_change_type_enum                             32    RECOMMENDED_CACHE_LINE_STATE_CHANGE                                
      snoop_response_mode_during_mem_update                                                                        snoop_response_mode_during_mem_update_type_enum               32    SUSPEND_SNOOP_DURING_MEM_UPDATE                                    
      snoop_response_data_transfer_mode                                                                            snoop_response_data_transfer_mode_enum                        32    SNOOP_RESP_DATA_TRANSFER_USING_CDDATA                              
      nonshareable_xact_address_range_in_systemshareable_mode                                                      nonshareable_xact_address_range_in_systemshareable_mode_enum  32    NONSHAREABLE_XACT_ADDR_OUTSIDE_INNER_OUTER_NON_SHAREABLE_ADDR_RANGE
      writeevict_enable                                                                                            integral                                                      1     'b0                                                                
      awunique_enable                                                                                              integral                                                      1     'b0                                                                
      num_outstanding_xact                                                                                         integral                                                      32    'd4                                                                
      num_read_outstanding_xact                                                                                    integral                                                      32    'd4                                                                
      num_write_outstanding_xact                                                                                   integral                                                      32    'd4                                                                
      num_outstanding_snoop_xact                                                                                   integral                                                      32    'd4                                                                
      enable_delayed_response_port                                                                                 integral                                                      1     'b0                                                                
      exclusive_access_enable                                                                                      integral                                                      1     'b0                                                                
      locked_access_enable                                                                                         integral                                                      1     'b0                                                                
      barrier_enable                                                                                               integral                                                      1     'b0                                                                
      max_num_exclusive_access                                                                                     integral                                                      32    'd4                                                                
      use_secured_exclusive_monitor                                                                                integral                                                      1     'b1                                                                
      allow_exclusive_store_without_exclusive_load                                                                 integral                                                      1     'b0                                                                
      allow_first_exclusive_store_to_succeed                                                                       integral                                                      1     'b0                                                                
      reset_exclusive_monitor_on_successful_exclusive_store                                                        integral                                                      1     'b1                                                                
      shareable_exclusive_access_from_acelite_ports_enable                                                         integral                                                      1     'b1                                                                
      num_id_bits_used_in_exclusive_monitor                                                                        integral                                                      32    'd8                                                                
      num_addr_bits_used_in_exclusive_monitor                                                                      integral                                                      32    'd64                                                               
      num_initial_addr_bits_ignored_by_exclusive_monitor                                                           integral                                                      32    'd0                                                                
      exclusive_monitor_error_control_reg                                                                          integral                                                      32    'd0                                                                
      write_data_interleave_depth                                                                                  integral                                                      32    'd1                                                                
      id_reflection_enable                                                                                         integral                                                      1     'b0                                                                
      serial_read_write_access                                                                                     integral                                                      1     'b0                                                                
      check_valid_data_bytes_only_enable                                                                           integral                                                      1     'b1                                                                
      protocol_checks_enable                                                                                       integral                                                      1     'b1                                                                
      protocol_check_stats_enable                                                                                  integral                                                      1     'b0                                                                
      toggle_coverage_enable                                                                                       integral                                                      1     'b0                                                                
      state_coverage_enable                                                                                        integral                                                      1     'b0                                                                
      meta_coverage_enable                                                                                         integral                                                      1     'b0                                                                
      transaction_coverage_enable                                                                                  integral                                                      1     'b1                                                                
      protocol_checks_coverage_enable                                                                              integral                                                      1     'b0                                                                
      valid_ready_dependency_coverage_enable                                                                       integral                                                      1     'b0                                                                
      pass_check_cov                                                                                               integral                                                      1     'b1                                                                
      signal_valid_during_reset_checks_enable                                                                      integral                                                      1     'b1                                                                
      cov_same_id_in_outstanding_xacts                                                                             integral                                                      32    'd0                                                                
      cov_specific_id_in_back_to_back_xacts                                                                        integral                                                      32    'd0                                                                
      cov_num_clks_awvalid_wvalid_dependency                                                                       integral                                                      32    'd10                                                               
      cov_num_clks_awvalid_rready_dependency                                                                       integral                                                      32    'd10                                                               
      cov_num_clks_awvalid_bready_dependency                                                                       integral                                                      32    'd10                                                               
      cov_num_clks_wvalid_awvalid_dependency                                                                       integral                                                      32    'd10                                                               
      cov_num_clks_wvalid_rready_dependency                                                                        integral                                                      32    'd10                                                               
      cov_num_clks_wvalid_bready_dependency                                                                        integral                                                      32    'd10                                                               
      cov_num_clks_rready_awvalid_dependency                                                                       integral                                                      32    'd10                                                               
      cov_num_clks_rready_wvalid_dependency                                                                        integral                                                      32    'd10                                                               
      cov_num_clks_rready_bready_dependency                                                                        integral                                                      32    'd10                                                               
      cov_num_clks_bready_awvalid_dependency                                                                       integral                                                      32    'd10                                                               
      cov_num_clks_bready_wvalid_dependency                                                                        integral                                                      32    'd10                                                               
      cov_num_clks_bready_rready_dependency                                                                        integral                                                      32    'd10                                                               
      cov_num_clks_wready_arready_dependency                                                                       integral                                                      32    'd10                                                               
      cov_num_clks_wready_rvalid_dependency                                                                        integral                                                      32    'd10                                                               
      cov_num_clks_wready_bvalid_dependency                                                                        integral                                                      32    'd10                                                               
      cov_num_clks_arready_wready_dependency                                                                       integral                                                      32    'd10                                                               
      cov_num_clks_arready_rvalid_dependency                                                                       integral                                                      32    'd10                                                               
      cov_num_clks_arready_bvalid_dependency                                                                       integral                                                      32    'd10                                                               
      cov_num_clks_rvalid_arready_dependency                                                                       integral                                                      32    'd10                                                               
      cov_num_clks_rvalid_wready_dependency                                                                        integral                                                      32    'd10                                                               
      cov_num_clks_rvalid_bvalid_dependency                                                                        integral                                                      32    'd10                                                               
      cov_num_clks_bvalid_arready_dependency                                                                       integral                                                      32    'd10                                                               
      cov_num_clks_bvalid_wready_dependency                                                                        integral                                                      32    'd10                                                               
      cov_num_clks_bvalid_rvalid_dependency                                                                        integral                                                      32    'd10                                                               
      cov_num_clks_awvalid_awready_dependency                                                                      integral                                                      32    'd10                                                               
      cov_num_clks_awvalid_wready_dependency                                                                       integral                                                      32    'd10                                                               
      cov_num_clks_awvalid_rvalid_dependency                                                                       integral                                                      32    'd10                                                               
      cov_num_clks_awvalid_bvalid_dependency                                                                       integral                                                      32    'd10                                                               
      cov_num_clks_wvalid_awready_dependency                                                                       integral                                                      32    'd10                                                               
      cov_num_clks_wvalid_wready_dependency                                                                        integral                                                      32    'd10                                                               
      cov_num_clks_wvalid_rvalid_dependency                                                                        integral                                                      32    'd10                                                               
      cov_num_clks_wvalid_bvalid_dependency                                                                        integral                                                      32    'd10                                                               
      cov_num_clks_rready_awready_dependency                                                                       integral                                                      32    'd10                                                               
      cov_num_clks_rready_wready_dependency                                                                        integral                                                      32    'd10                                                               
      cov_num_clks_rready_rvalid_dependency                                                                        integral                                                      32    'd10                                                               
      cov_num_clks_rready_bvalid_dependency                                                                        integral                                                      32    'd10                                                               
      cov_num_clks_bready_awready_dependency                                                                       integral                                                      32    'd10                                                               
      cov_num_clks_bready_wready_dependency                                                                        integral                                                      32    'd10                                                               
      cov_num_clks_bready_rvalid_dependency                                                                        integral                                                      32    'd10                                                               
      cov_num_clks_bready_bvalid_dependency                                                                        integral                                                      32    'd10                                                               
      cov_num_clks_awready_and_awvalid_dependency                                                                  integral                                                      32    'd10                                                               
      cov_num_clks_awready_and_wvalid_dependency                                                                   integral                                                      32    'd10                                                               
      cov_num_clks_awready_and_rvalid_dependency                                                                   integral                                                      32    'd10                                                               
      cov_num_clks_awready_and_bvalid_dependency                                                                   integral                                                      32    'd10                                                               
      cov_num_clks_wready_and_awvalid_dependency                                                                   integral                                                      32    'd10                                                               
      cov_num_clks_wready_and_wvalid_dependency                                                                    integral                                                      32    'd10                                                               
      cov_num_clks_wready_and_rready_dependency                                                                    integral                                                      32    'd10                                                               
      cov_num_clks_wready_and_bready_dependency                                                                    integral                                                      32    'd10                                                               
      cov_num_clks_rvalid_and_awready_dependency                                                                   integral                                                      32    'd10                                                               
      cov_num_clks_rvalid_and_wready_dependency                                                                    integral                                                      32    'd10                                                               
      cov_num_clks_rvalid_and_rready_dependency                                                                    integral                                                      32    'd10                                                               
      cov_num_clks_rvalid_and_bready_dependency                                                                    integral                                                      32    'd10                                                               
      cov_num_clks_bvalid_and_awready_dependency                                                                   integral                                                      32    'd10                                                               
      cov_num_clks_bvalid_and_wready_dependency                                                                    integral                                                      32    'd10                                                               
      cov_num_clks_bvalid_and_rready_dependency                                                                    integral                                                      32    'd10                                                               
      cov_num_clks_bvalid_and_bready_dependency                                                                    integral                                                      32    'd10                                                               
      cov_same_id_in_dvm_tlbi_outstanding_xacts                                                                    integral                                                      32    'd0                                                                
      cov_bins_num_outstanding_xacts                                                                               integral                                                      32    'd64                                                               
      cov_bins_num_outstanding_snoop_xacts                                                                         integral                                                      32    'd64                                                               
      cov_bins_dvm_tlbi_num_outstanding_xacts                                                                      integral                                                      32    'd64                                                               
      trans_cross_axi_awburst_awlen_awaddr_enable                                                                  integral                                                      1     'b1                                                                
      cov_num_outstanding_xacts_range_enable                                                                       integral                                                      1     'b0                                                                
      trans_cross_axi_awburst_awlen_bresp_enable                                                                   integral                                                      1     'b1                                                                
      trans_cross_axi_awburst_awlen_awprot_enable                                                                  integral                                                      1     'b1                                                                
      trans_cross_axi_arburst_arlen_araddr_enable                                                                  integral                                                      1     'b1                                                                
      trans_cross_axi_arburst_arlen_rresp_enable                                                                   integral                                                      1     'b1                                                                
      trans_cross_axi_atomictype_rresp_enable                                                                      integral                                                      1     'b1                                                                
      trans_cross_axi_atomictype_bresp_enable                                                                      integral                                                      1     'b1                                                                
      trans_cross_axi_arburst_arlen_arprot_enable                                                                  integral                                                      1     'b1                                                                
      trans_cross_axi_awburst_awlen_awaddr_awsize_enable                                                           integral                                                      1     'b1                                                                
      trans_cross_axi_awburst_awlen_awsize_enable                                                                  integral                                                      1     'b1                                                                
      trans_cross_axi_awburst_awlen_enable                                                                         integral                                                      1     'b1                                                                
      trans_cross_axi_awburst_awlen_awlock_enable                                                                  integral                                                      1     'b1                                                                
      trans_cross_axi_awburst_awlen_awcache_enable                                                                 integral                                                      1     'b1                                                                
      trans_cross_axi_arburst_arlen_araddr_arsize_enable                                                           integral                                                      1     'b1                                                                
      trans_cross_axi_arburst_arlen_arsize_enable                                                                  integral                                                      1     'b1                                                                
      trans_cross_axi_arburst_arlen_arlock_enable                                                                  integral                                                      1     'b1                                                                
      trans_cross_axi_arburst_arlen_enable                                                                         integral                                                      1     'b1                                                                
      trans_cross_axi_arburst_arlen_arcache_enable                                                                 integral                                                      1     'b1                                                                
      trans_cross_axi_awburst_awqos_enable                                                                         integral                                                      1     'b1                                                                
      trans_cross_axi_arburst_arqos_enable                                                                         integral                                                      1     'b1                                                                
      trans_cross_ace_awsnoop_awburst_enable                                                                       integral                                                      1     'b1                                                                
      trans_cross_ace_awsnoop_awlen_enable                                                                         integral                                                      1     'b1                                                                
      trans_cross_ace_awsnoop_awsize_enable                                                                        integral                                                      1     'b1                                                                
      trans_cross_ace_awsnoop_awaddr_enable                                                                        integral                                                      1     'b1                                                                
      trans_cross_ace_awsnoop_awcache_enable                                                                       integral                                                      1     'b1                                                                
      trans_cross_ace_awsnoop_bresp_enable                                                                         integral                                                      1     'b1                                                                
      trans_cross_ace_awsnoop_awdomain_bresp_enable                                                                integral                                                      1     'b1                                                                
      trans_cross_ace_awsnoop_awdomain_enable                                                                      integral                                                      1     'b1                                                                
      trans_cross_ace_awsnoop_awdomain_awcache_enable                                                              integral                                                      1     'b1                                                                
      trans_cross_ace_awsnoop_awbar_enable                                                                         integral                                                      1     'b1                                                                
      trans_cross_ace_awdomain_awbarrier_memory_sync_enable                                                        integral                                                      1     'b1                                                                
      trans_cross_ace_awdomain_awbarrier_respect_ignore_enable                                                     integral                                                      1     'b1                                                                
      trans_cross_ace_ardomain_arbarrier_memory_sync_enable                                                        integral                                                      1     'b1                                                                
      trans_cross_ace_ardomain_arbarrier_respect_ignore_enable                                                     integral                                                      1     'b1                                                                
      trans_cross_ace_arsnoop_arburst_enable                                                                       integral                                                      1     'b1                                                                
      trans_cross_ace_arsnoop_arlen_enable                                                                         integral                                                      1     'b1                                                                
      trans_cross_ace_arsnoop_arsize_enable                                                                        integral                                                      1     'b1                                                                
      trans_cross_ace_arsnoop_araddr_enable                                                                        integral                                                      1     'b1                                                                
      trans_cross_ace_arsnoop_arcache_enable                                                                       integral                                                      1     'b1                                                                
      trans_cross_ace_arsnoop_coh_rresp_enable                                                                     integral                                                      1     'b1                                                                
      trans_cross_ace_arsnoop_ardomain_enable                                                                      integral                                                      1     'b1                                                                
      trans_cross_ace_arsnoop_ardomain_arcache_enable                                                              integral                                                      1     'b1                                                                
      trans_cross_ace_arsnoop_arbar_enable                                                                         integral                                                      1     'b1                                                                
      trans_cross_ace_ardvmmessage_ardvmresp_enable                                                                integral                                                      1     'b1                                                                
      trans_cross_ace_acsnoop_acaddr_enable                                                                        integral                                                      1     'b1                                                                
      trans_cross_ace_acsnoop_acprot_enable                                                                        integral                                                      1     'b1                                                                
      trans_cross_ace_acsnoop_crresp_enable                                                                        integral                                                      1     'b1                                                                
      trans_cross_ace_acdvmmessage_acdvmresp_enable                                                                integral                                                      1     'b1                                                                
      trans_cross_ace_arsnoop_cacheinitialstate_cachefinalstate_enable                                             integral                                                      1     'b1                                                                
      trans_cross_ace_awsnoop_cacheinitialstate_cachefinalstate_enable                                             integral                                                      1     'b1                                                                
      trans_cross_ace_acsnoop_cacheinitialstate_cachefinalstate_enable                                             integral                                                      1     'b1                                                                
      trans_meta_axi_read_enable                                                                                   integral                                                      1     'b1                                                                
      trans_meta_axi_write_enable                                                                                  integral                                                      1     'b1                                                                
      trans_meta_axi4_stream_enable                                                                                integral                                                      1     'b1                                                                
      trans_axi4_stream_delay_enable                                                                               integral                                                      1     'b1                                                                
      trans_cross_axi_ooo_read_response_depth_enable                                                               integral                                                      1     'b1                                                                
      trans_cross_axi_ooo_write_response_depth_enable                                                              integral                                                      1     'b1                                                                
      trans_cross_stream_xact_type_tid_tdest_enable                                                                integral                                                      1     'b1                                                                
      trans_cross_axi_outstanding_xact_enable                                                                      integral                                                      1     'b1                                                                
      trans_ace_barrier_outstanding_xact_enable                                                                    integral                                                      1     'b1                                                                
      trans_non_barrier_xact_after_256_outstanding_barrier_xact_enable                                             integral                                                      1     'b1                                                                
      trans_ace_barrier_pair_sequence_enable                                                                       integral                                                      1     'b1                                                                
      trans_axi_back_to_back_read_burst_sequence_enable                                                            integral                                                      1     'b1                                                                
      trans_axi_back_to_back_write_burst_sequence_enable                                                           integral                                                      1     'b1                                                                
      trans_axi_write_read_same_id_completed_out_of_order_enable                                                   integral                                                      1     'b1                                                                
      trans_axi_write_read_diff_id_completed_out_of_order_enable                                                   integral                                                      1     'b1                                                                
      trans_cross_ace_dvm_tlbinvl_modes_virtaddr_cov_enable                                                        integral                                                      1     'b1                                                                
      trans_cross_ace_dvm_branch_predictor_invl_modes_cov_enable                                                   integral                                                      1     'b1                                                                
      trans_cross_ace_dvm_phy_inst_cache_invl_modes_modes_cov_enable                                               integral                                                      1     'b1                                                                
      trans_cross_ace_dvm_virt_inst_cache_invl_modes_cov_enable                                                    integral                                                      1     'b1                                                                
      trans_cross_ace_dvm_firstpart_addr_range_cov_enable                                                          integral                                                      1     'b1                                                                
      trans_cross_ace_dvm_firstpart_secondpart_addr_range_cov_enable                                               integral                                                      1     'b1                                                                
      trans_cross_axi_fixed_burst_wstrb_cov_enable                                                                 integral                                                      1     'b1                                                                
      trans_cross_axi_awcache_modifiable_bit_write_unaligned_transfer_cov_enable                                   integral                                                      1     'b1                                                                
      trans_cross_axi_arcache_modifiable_bit_read_unaligned_transfer_cov_enable                                    integral                                                      1     'b1                                                                
      trans_axi_wstrb_to_signal_unaligned_start_address_cov_enable                                                 integral                                                      1     'b1                                                                
      trans_axi_read_outstanding_xact_same_arid_cache_modifiable_bit_enable                                        integral                                                      1     'b1                                                                
      trans_axi_read_outstanding_xact_diff_arid_cache_modifiable_bit_enable                                        integral                                                      1     'b1                                                                
      trans_axi_read_outstanding_xact_diff_arid_device_cacheable_bit_enable                                        integral                                                      1     'b1                                                                
      trans_axi_write_outstanding_xact_same_awid_cache_modifiable_bit_enable                                       integral                                                      1     'b1                                                                
      trans_axi_write_outstanding_xact_diff_awid_cache_modifiable_bit_enable                                       integral                                                      1     'b1                                                                
      trans_axi_write_outstanding_xact_diff_awid_device_cacheable_bit_enable                                       integral                                                      1     'b1                                                                
      trans_axi_num_outstanding_xacts_with_same_arid_enable                                                        integral                                                      1     'b1                                                                
      trans_axi_num_outstanding_xacts_with_multiple_same_arid_enable                                               integral                                                      1     'b1                                                                
      trans_axi_num_outstanding_xacts_with_multiple_same_awid_enable                                               integral                                                      1     'b1                                                                
      trans_axi_num_outstanding_xacts_with_diff_arid_enable                                                        integral                                                      1     'b1                                                                
      trans_axi_num_outstanding_xacts_with_diff_arid_range_enable                                                  integral                                                      1     'b1                                                                
      trans_axi_num_outstanding_xacts_with_same_awid_enable                                                        integral                                                      1     'b1                                                                
      trans_axi_num_outstanding_xacts_with_diff_awid_enable                                                        integral                                                      1     'b1                                                                
      trans_axi_num_outstanding_xacts_with_diff_awid_range_enable                                                  integral                                                      1     'b1                                                                
      trans_ace_num_outstanding_snoop_xacts_enable                                                                 integral                                                      1     'b1                                                                
      trans_ace_num_outstanding_dvm_tlb_invalidate_xacts_with_same_arid_enable                                     integral                                                      1     'b1                                                                
      trans_ace_num_outstanding_dvm_tlb_invalidate_xacts_with_diff_arid_range_enable                               integral                                                      1     'b1                                                                
      single_outstanding_per_id_enable                                                                             integral                                                      1     'b0                                                                
      single_outstanding_per_tdest_enable                                                                          integral                                                      1     'b0                                                                
      trans_ace_num_outstanding_dvm_tlb_invalidate_xacts_with_diff_arid_enable                                     integral                                                      1     'b1                                                                
      trans_cross_axi_atomictype_exclusive_arcache_enable                                                          integral                                                      1     'b1                                                                
      trans_cross_axi_atomictype_exclusive_awcache_enable                                                          integral                                                      1     'b1                                                                
      trans_cross_ace_writeunique_awdomain_awprot_enable                                                           integral                                                      1     'b1                                                                
      cov_trans_cross_slave_port_id_enable                                                                         integral                                                      1     'b0                                                                
      trans_cross_ace_readonce_ardomain_arprot_enable                                                              integral                                                      1     'b1                                                                
      trans_cross_ace_awprot_awbarrier_memory_sync_enable                                                          integral                                                      1     'b1                                                                
      trans_cross_ace_arprot_arbarrier_memory_sync_enable                                                          integral                                                      1     'b1                                                                
      trans_axi_four_state_rd_wr_burst_sequence_cov_enable                                                         integral                                                      1     'b1                                                                
      trans_axi_four_excl_normal_sequence_cov_enable                                                               integral                                                      1     'b1                                                                
      trans_lock_followed_by_excl_sequence_enable                                                                  integral                                                      1     'b1                                                                
      trans_cross_axi_write_strobes_enable                                                                         integral                                                      1     'b1                                                                
      trans_cross_axi_write_interleaving_depth_enable                                                              integral                                                      1     'b1                                                                
      trans_cross_master_to_slave_path_access_cov_enable                                                           integral                                                      1     'b0                                                                
      trans_cross_axi_read_interleaving_depth_enable                                                               integral                                                      1     'b1                                                                
      trans_cross_axi_write_narrow_transfer_awlen_awaddr_enable                                                    integral                                                      1     'b1                                                                
      trans_cross_axi_read_narrow_transfer_arlen_araddr_enable                                                     integral                                                      1     'b1                                                                
      trans_cross_axi_write_unaligned_transfer_enable                                                              integral                                                      1     'b1                                                                
      trans_cross_axi_read_unaligned_transfer_enable                                                               integral                                                      1     'b1                                                                
      trans_master_ace_lite_coherent_and_ace_snoop_response_association_enable                                     integral                                                      1     'b1                                                                
      trans_master_ace_coherent_and_ace_snoop_response_association_enable                                          integral                                                      1     'b1                                                                
      trans_master_ace_lite_coherent_and_ace_snoop_response_association_specific_id_enable                         integral                                                      1     'b1                                                                
      trans_master_ace_lite_coherent_and_ace_snoop_response_association_back_to_back_xact_with_specific_id_enable  integral                                                      1     'b1                                                                
      master_slave_xact_association_cache_prot_check_enable                                                        integral                                                      1     'b1                                                                
      trans_axi_snoop_enable                                                                                       integral                                                      1     'b1                                                                
